Freq.	V(vo)
1.00000000000000e+01	(-2.31560795742881e+00dB,-3.04189769780535e+01°)
1.00069338746258e+01	(-2.31798344881115e+00dB,-3.04312380001293e+01°)
1.00138725571133e+01	(-2.32036063369604e+00dB,-3.04434960240579e+01°)
1.00208160507963e+01	(-2.32273951196640e+00dB,-3.04557510384844e+01°)
1.00277643590108e+01	(-2.32512008350287e+00dB,-3.04680030320501e+01°)
1.00347174850950e+01	(-2.32750234818339e+00dB,-3.04802519933940e+01°)
1.00416754323897e+01	(-2.32988630588381e+00dB,-3.04924979111509e+01°)
1.00486382042379e+01	(-2.33227195647734e+00dB,-3.05047407739527e+01°)
1.00556058039847e+01	(-2.33465929983495e+00dB,-3.05169805704280e+01°)
1.00625782349778e+01	(-2.33704833582509e+00dB,-3.05292172892023e+01°)
1.00695555005672e+01	(-2.33943906431386e+00dB,-3.05414509188976e+01°)
1.00765376041051e+01	(-2.34183148516487e+00dB,-3.05536814481332e+01°)
1.00835245489460e+01	(-2.34422559823942e+00dB,-3.05659088655249e+01°)
1.00905163384468e+01	(-2.34662140339638e+00dB,-3.05781331596851e+01°)
1.00975129759669e+01	(-2.34901890049208e+00dB,-3.05903543192240e+01°)
1.01045144648677e+01	(-2.35141808938059e+00dB,-3.06025723327478e+01°)
1.01115208085131e+01	(-2.35381896991343e+00dB,-3.06147871888604e+01°)
1.01185320102693e+01	(-2.35622154193980e+00dB,-3.06269988761621e+01°)
1.01255480735049e+01	(-2.35862580530639e+00dB,-3.06392073832507e+01°)
1.01325690015909e+01	(-2.36103175985760e+00dB,-3.06514126987203e+01°)
1.01395947979003e+01	(-2.36343940543521e+00dB,-3.06636148111629e+01°)
1.01466254658088e+01	(-2.36584874187865e+00dB,-3.06758137091674e+01°)
1.01536610086943e+01	(-2.36825976902508e+00dB,-3.06880093813191e+01°)
1.01607014299370e+01	(-2.37067248670895e+00dB,-3.07002018162013e+01°)
1.01677467329196e+01	(-2.37308689476253e+00dB,-3.07123910023939e+01°)
1.01747969210269e+01	(-2.37550299301542e+00dB,-3.07245769284745e+01°)
1.01818519976462e+01	(-2.37792078129504e+00dB,-3.07367595830173e+01°)
1.01889119661673e+01	(-2.38034025942612e+00dB,-3.07489389545942e+01°)
1.01959768299819e+01	(-2.38276142723116e+00dB,-3.07611150317740e+01°)
1.02030465924846e+01	(-2.38518428453009e+00dB,-3.07732878031231e+01°)
1.02101212570720e+01	(-2.38760883114045e+00dB,-3.07854572572051e+01°)
1.02172008271430e+01	(-2.39003506687728e+00dB,-3.07976233825810e+01°)
1.02242853060993e+01	(-2.39246299155327e+00dB,-3.08097861678089e+01°)
1.02313746973444e+01	(-2.39489260497862e+00dB,-3.08219456014445e+01°)
1.02384690042845e+01	(-2.39732390696106e+00dB,-3.08341016720409e+01°)
1.02455682303281e+01	(-2.39975689730588e+00dB,-3.08462543681485e+01°)
1.02526723788860e+01	(-2.40219157581589e+00dB,-3.08584036783155e+01°)
1.02597814533714e+01	(-2.40462794229158e+00dB,-3.08705495910870e+01°)
1.02668954572000e+01	(-2.40706599653077e+00dB,-3.08826920950064e+01°)
1.02740143937897e+01	(-2.40950573832908e+00dB,-3.08948311786137e+01°)
1.02811382665607e+01	(-2.41194716747940e+00dB,-3.09069668304475e+01°)
1.02882670789358e+01	(-2.41439028377243e+00dB,-3.09190990390430e+01°)
1.02954008343400e+01	(-2.41683508699616e+00dB,-3.09312277929338e+01°)
1.03025395362008e+01	(-2.41928157693631e+00dB,-3.09433530806507e+01°)
1.03096831879479e+01	(-2.42172975337608e+00dB,-3.09554748907221e+01°)
1.03168317930136e+01	(-2.42417961609613e+00dB,-3.09675932116747e+01°)
1.03239853548325e+01	(-2.42663116487481e+00dB,-3.09797080320320e+01°)
1.03311438768414e+01	(-2.42908439948784e+00dB,-3.09918193403161e+01°)
1.03383073624797e+01	(-2.43153931970862e+00dB,-3.10039271250462e+01°)
1.03454758151891e+01	(-2.43399592530789e+00dB,-3.10160313747400e+01°)
1.03526492384138e+01	(-2.43645421605420e+00dB,-3.10281320779121e+01°)
1.03598276356002e+01	(-2.43891419171332e+00dB,-3.10402292230761e+01°)
1.03670110101973e+01	(-2.44137585204880e+00dB,-3.10523227987422e+01°)
1.03741993656562e+01	(-2.44383919682157e+00dB,-3.10644127934195e+01°)
1.03813927054306e+01	(-2.44630422579010e+00dB,-3.10764991956147e+01°)
1.03885910329767e+01	(-2.44877093871042e+00dB,-3.10885819938324e+01°)
1.03957943517528e+01	(-2.45123933533605e+00dB,-3.11006611765752e+01°)
1.04030026652199e+01	(-2.45370941541812e+00dB,-3.11127367323435e+01°)
1.04102159768412e+01	(-2.45618117870520e+00dB,-3.11248086496361e+01°)
1.04174342900823e+01	(-2.45865462494334e+00dB,-3.11368769169496e+01°)
1.04246576084113e+01	(-2.46112975387616e+00dB,-3.11489415227790e+01°)
1.04318859352987e+01	(-2.46360656524481e+00dB,-3.11610024556170e+01°)
1.04391192742173e+01	(-2.46608505878799e+00dB,-3.11730597039544e+01°)
1.04463576286424e+01	(-2.46856523424175e+00dB,-3.11851132562808e+01°)
1.04536010020517e+01	(-2.47104709133982e+00dB,-3.11971631010834e+01°)
1.04608493979254e+01	(-2.47353062981342e+00dB,-3.12092092268476e+01°)
1.04681028197458e+01	(-2.47601584939115e+00dB,-3.12212516220575e+01°)
1.04753612709981e+01	(-2.47850274979929e+00dB,-3.12332902751949e+01°)
1.04826247551694e+01	(-2.48099133076157e+00dB,-3.12453251747401e+01°)
1.04898932757495e+01	(-2.48348159199907e+00dB,-3.12573563091723e+01°)
1.04971668362308e+01	(-2.48597353323059e+00dB,-3.12693836669682e+01°)
1.05044454401076e+01	(-2.48846715417240e+00dB,-3.12814072366030e+01°)
1.05117290908771e+01	(-2.49096245453819e+00dB,-3.12934270065507e+01°)
1.05190177920388e+01	(-2.49345943403911e+00dB,-3.13054429652838e+01°)
1.05263115470945e+01	(-2.49595809238399e+00dB,-3.13174551012725e+01°)
1.05336103595484e+01	(-2.49845842927899e+00dB,-3.13294634029863e+01°)
1.05409142329075e+01	(-2.50096044442784e+00dB,-3.13414678588928e+01°)
1.05482231706807e+01	(-2.50346413753181e+00dB,-3.13534684574579e+01°)
1.05555371763798e+01	(-2.50596950828958e+00dB,-3.13654651871465e+01°)
1.05628562535187e+01	(-2.50847655639736e+00dB,-3.13774580364220e+01°)
1.05701804056139e+01	(-2.51098528154883e+00dB,-3.13894469937464e+01°)
1.05775096361844e+01	(-2.51349568343522e+00dB,-3.14014320475801e+01°)
1.05848439487514e+01	(-2.51600776174518e+00dB,-3.14134131863824e+01°)
1.05921833468389e+01	(-2.51852151616492e+00dB,-3.14253903986112e+01°)
1.05995278339729e+01	(-2.52103694637809e+00dB,-3.14373636727232e+01°)
1.06068774136823e+01	(-2.52355405206581e+00dB,-3.14493329971738e+01°)
1.06142320894980e+01	(-2.52607283290679e+00dB,-3.14612983604169e+01°)
1.06215918649538e+01	(-2.52859328857711e+00dB,-3.14732597509056e+01°)
1.06289567435856e+01	(-2.53111541875037e+00dB,-3.14852171570919e+01°)
1.06363267289319e+01	(-2.53363922309773e+00dB,-3.14971705674259e+01°)
1.06437018245337e+01	(-2.53616470128768e+00dB,-3.15091199703576e+01°)
1.06510820339343e+01	(-2.53869185298632e+00dB,-3.15210653543351e+01°)
1.06584673606795e+01	(-2.54122067785723e+00dB,-3.15330067078056e+01°)
1.06658578083178e+01	(-2.54375117556133e+00dB,-3.15449440192158e+01°)
1.06732533803997e+01	(-2.54628334575721e+00dB,-3.15568772770106e+01°)
1.06806540804786e+01	(-2.54881718810084e+00dB,-3.15688064696343e+01°)
1.06880599121102e+01	(-2.55135270224561e+00dB,-3.15807315855304e+01°)
1.06954708788526e+01	(-2.55388988784244e+00dB,-3.15926526131414e+01°)
1.07028869842664e+01	(-2.55642874453980e+00dB,-3.16045695409083e+01°)
1.07103082319147e+01	(-2.55896927198354e+00dB,-3.16164823572720e+01°)
1.07177346253630e+01	(-2.56151146981703e+00dB,-3.16283910506720e+01°)
1.07251661681795e+01	(-2.56405533768102e+00dB,-3.16402956095475e+01°)
1.07326028639347e+01	(-2.56660087521389e+00dB,-3.16521960223364e+01°)
1.07400447162014e+01	(-2.56914808205135e+00dB,-3.16640922774760e+01°)
1.07474917285551e+01	(-2.57169695782664e+00dB,-3.16759843634029e+01°)
1.07549439045739e+01	(-2.57424750217048e+00dB,-3.16878722685529e+01°)
1.07624012478381e+01	(-2.57679971471094e+00dB,-3.16997559813616e+01°)
1.07698637619306e+01	(-2.57935359507382e+00dB,-3.17116354902627e+01°)
1.07773314504368e+01	(-2.58190914288209e+00dB,-3.17235107836907e+01°)
1.07848043169446e+01	(-2.58446635775633e+00dB,-3.17353818500786e+01°)
1.07922823650444e+01	(-2.58702523931461e+00dB,-3.17472486778591e+01°)
1.07997655983290e+01	(-2.58958578717245e+00dB,-3.17591112554640e+01°)
1.08072540203936e+01	(-2.59214800094269e+00dB,-3.17709695713255e+01°)
1.08147476348363e+01	(-2.59471188023582e+00dB,-3.17828236138741e+01°)
1.08222464452573e+01	(-2.59727742465966e+00dB,-3.17946733715408e+01°)
1.08297504552594e+01	(-2.59984463381964e+00dB,-3.18065188327553e+01°)
1.08372596684479e+01	(-2.60241350731845e+00dB,-3.18183599859477e+01°)
1.08447740884308e+01	(-2.60498404475635e+00dB,-3.18301968195472e+01°)
1.08522937188182e+01	(-2.60755624573114e+00dB,-3.18420293219826e+01°)
1.08598185632231e+01	(-2.61013010983788e+00dB,-3.18538574816827e+01°)
1.08673486252607e+01	(-2.61270563666925e+00dB,-3.18656812870757e+01°)
1.08748839085490e+01	(-2.61528282581524e+00dB,-3.18775007265899e+01°)
1.08824244167082e+01	(-2.61786167686345e+00dB,-3.18893157886528e+01°)
1.08899701533612e+01	(-2.62044218939888e+00dB,-3.19011264616918e+01°)
1.08975211221334e+01	(-2.62302436300397e+00dB,-3.19129327341341e+01°)
1.09050773266527e+01	(-2.62560819725846e+00dB,-3.19247345944076e+01°)
1.09126387705495e+01	(-2.62819369173984e+00dB,-3.19365320309386e+01°)
1.09202054574567e+01	(-2.63078084602282e+00dB,-3.19483250321543e+01°)
1.09277773910097e+01	(-2.63336965967971e+00dB,-3.19601135864812e+01°)
1.09353545748465e+01	(-2.63596013228008e+00dB,-3.19718976823464e+01°)
1.09429370126075e+01	(-2.63855226339112e+00dB,-3.19836773081763e+01°)
1.09505247079359e+01	(-2.64114605257742e+00dB,-3.19954524523977e+01°)
1.09581176644771e+01	(-2.64374149940099e+00dB,-3.20072231034372e+01°)
1.09657158858791e+01	(-2.64633860342128e+00dB,-3.20189892497217e+01°)
1.09733193757926e+01	(-2.64893736419525e+00dB,-3.20307508796777e+01°)
1.09809281378707e+01	(-2.65153778127725e+00dB,-3.20425079817322e+01°)
1.09885421757690e+01	(-2.65413985421906e+00dB,-3.20542605443124e+01°)
1.09961614931457e+01	(-2.65674358256992e+00dB,-3.20660085558454e+01°)
1.10037860936615e+01	(-2.65934896587653e+00dB,-3.20777520047585e+01°)
1.10114159809798e+01	(-2.66195600368309e+00dB,-3.20894908794790e+01°)
1.10190511587663e+01	(-2.66456469553104e+00dB,-3.21012251684354e+01°)
1.10266916306893e+01	(-2.66717504095952e+00dB,-3.21129548600551e+01°)
1.10343374004198e+01	(-2.66978703950496e+00dB,-3.21246799427665e+01°)
1.10419884716311e+01	(-2.67240069070119e+00dB,-3.21364004049987e+01°)
1.10496448479993e+01	(-2.67501599407955e+00dB,-3.21481162351806e+01°)
1.10573065332029e+01	(-2.67763294916891e+00dB,-3.21598274217412e+01°)
1.10649735309229e+01	(-2.68025155549538e+00dB,-3.21715339531106e+01°)
1.10726458448430e+01	(-2.68287181258261e+00dB,-3.21832358177192e+01°)
1.10803234786494e+01	(-2.68549371995170e+00dB,-3.21949330039975e+01°)
1.10880064360309e+01	(-2.68811727712118e+00dB,-3.22066255003765e+01°)
1.10956947206786e+01	(-2.69074248360703e+00dB,-3.22183132952881e+01°)
1.11033883362866e+01	(-2.69336933892259e+00dB,-3.22299963771644e+01°)
1.11110872865511e+01	(-2.69599784257870e+00dB,-3.22416747344382e+01°)
1.11187915751713e+01	(-2.69862799408357e+00dB,-3.22533483555432e+01°)
1.11265012058485e+01	(-2.70125979294301e+00dB,-3.22650172289128e+01°)
1.11342161822871e+01	(-2.70389323866001e+00dB,-3.22766813429822e+01°)
1.11419365081935e+01	(-2.70652833073521e+00dB,-3.22883406861864e+01°)
1.11496621872772e+01	(-2.70916506866656e+00dB,-3.22999952469617e+01°)
1.11573932232498e+01	(-2.71180345194953e+00dB,-3.23116450137445e+01°)
1.11651296198259e+01	(-2.71444348007687e+00dB,-3.23232899749729e+01°)
1.11728713807224e+01	(-2.71708515253891e+00dB,-3.23349301190849e+01°)
1.11806185096588e+01	(-2.71972846882339e+00dB,-3.23465654345196e+01°)
1.11883710103573e+01	(-2.72237342841542e+00dB,-3.23581959097171e+01°)
1.11961288865426e+01	(-2.72502003079760e+00dB,-3.23698215331181e+01°)
1.12038921419420e+01	(-2.72766827544983e+00dB,-3.23814422931648e+01°)
1.12116607802853e+01	(-2.73031816184968e+00dB,-3.23930581782993e+01°)
1.12194348053050e+01	(-2.73296968947190e+00dB,-3.24046691769656e+01°)
1.12272142207363e+01	(-2.73562285778876e+00dB,-3.24162752776086e+01°)
1.12349990303167e+01	(-2.73827766627006e+00dB,-3.24278764686734e+01°)
1.12427892377864e+01	(-2.74093411438282e+00dB,-3.24394727386071e+01°)
1.12505848468883e+01	(-2.74359220159167e+00dB,-3.24510640758573e+01°)
1.12583858613678e+01	(-2.74625192735858e+00dB,-3.24626504688729e+01°)
1.12661922849730e+01	(-2.74891329114299e+00dB,-3.24742319061038e+01°)
1.12740041214544e+01	(-2.75157629240167e+00dB,-3.24858083760013e+01°)
1.12818213745653e+01	(-2.75424093058893e+00dB,-3.24973798670176e+01°)
1.12896440480615e+01	(-2.75690720515645e+00dB,-3.25089463676062e+01°)
1.12974721457015e+01	(-2.75957511555328e+00dB,-3.25205078662222e+01°)
1.13053056712461e+01	(-2.76224466122607e+00dB,-3.25320643513210e+01°)
1.13131446284592e+01	(-2.76491584161864e+00dB,-3.25436158113606e+01°)
1.13209890211070e+01	(-2.76758865617252e+00dB,-3.25551622347989e+01°)
1.13288388529582e+01	(-2.77026310432636e+00dB,-3.25667036100966e+01°)
1.13366941277844e+01	(-2.77293918551645e+00dB,-3.25782399257149e+01°)
1.13445548493598e+01	(-2.77561689917647e+00dB,-3.25897711701162e+01°)
1.13524210214609e+01	(-2.77829624473744e+00dB,-3.26012973317651e+01°)
1.13602926478671e+01	(-2.78097722162787e+00dB,-3.26128183991270e+01°)
1.13681697323604e+01	(-2.78365982927365e+00dB,-3.26243343606693e+01°)
1.13760522787253e+01	(-2.78634406709814e+00dB,-3.26358452048605e+01°)
1.13839402907490e+01	(-2.78902993452208e+00dB,-3.26473509201708e+01°)
1.13918337722214e+01	(-2.79171743096367e+00dB,-3.26588514950720e+01°)
1.13997327269348e+01	(-2.79440655583847e+00dB,-3.26703469180375e+01°)
1.14076371586845e+01	(-2.79709730855944e+00dB,-3.26818371775426e+01°)
1.14155470712680e+01	(-2.79978968853713e+00dB,-3.26933222620635e+01°)
1.14234624684857e+01	(-2.80248369517933e+00dB,-3.27048021600789e+01°)
1.14313833541406e+01	(-2.80517932789134e+00dB,-3.27162768600686e+01°)
1.14393097320383e+01	(-2.80787658607578e+00dB,-3.27277463505148e+01°)
1.14472416059871e+01	(-2.81057546913287e+00dB,-3.27392106199007e+01°)
1.14551789797978e+01	(-2.81327597646007e+00dB,-3.27506696567119e+01°)
1.14631218572840e+01	(-2.81597810745237e+00dB,-3.27621234494353e+01°)
1.14710702422619e+01	(-2.81868186150208e+00dB,-3.27735719865604e+01°)
1.14790241385503e+01	(-2.82138723799905e+00dB,-3.27850152565779e+01°)
1.14869835499706e+01	(-2.82409423633047e+00dB,-3.27964532479805e+01°)
1.14949484803470e+01	(-2.82680285588093e+00dB,-3.28078859492633e+01°)
1.15029189335063e+01	(-2.82951309603248e+00dB,-3.28193133489230e+01°)
1.15108949132779e+01	(-2.83222495616464e+00dB,-3.28307354354581e+01°)
1.15188764234938e+01	(-2.83493843565421e+00dB,-3.28421521973697e+01°)
1.15268634679889e+01	(-2.83765353387551e+00dB,-3.28535636231604e+01°)
1.15348560506005e+01	(-2.84037025020027e+00dB,-3.28649697013352e+01°)
1.15428541751686e+01	(-2.84308858399763e+00dB,-3.28763704204009e+01°)
1.15508578455361e+01	(-2.84580853463409e+00dB,-3.28877657688671e+01°)
1.15588670655483e+01	(-2.84853010147366e+00dB,-3.28991557352447e+01°)
1.15668818390531e+01	(-2.85125328387774e+00dB,-3.29105403080471e+01°)
1.15749021699015e+01	(-2.85397808120505e+00dB,-3.29219194757905e+01°)
1.15829280619467e+01	(-2.85670449281191e+00dB,-3.29332932269924e+01°)
1.15909595190448e+01	(-2.85943251805190e+00dB,-3.29446615501733e+01°)
1.15989965450546e+01	(-2.86216215627606e+00dB,-3.29560244338558e+01°)
1.16070391438375e+01	(-2.86489340683285e+00dB,-3.29673818665647e+01°)
1.16150873192575e+01	(-2.86762626906826e+00dB,-3.29787338368269e+01°)
1.16231410751814e+01	(-2.87036074232545e+00dB,-3.29900803331727e+01°)
1.16312004154788e+01	(-2.87309682594525e+00dB,-3.30014213441336e+01°)
1.16392653440216e+01	(-2.87583451926578e+00dB,-3.30127568582442e+01°)
1.16473358646848e+01	(-2.87857382162257e+00dB,-3.30240868640415e+01°)
1.16554119813459e+01	(-2.88131473234858e+00dB,-3.30354113500652e+01°)
1.16634936978850e+01	(-2.88405725077428e+00dB,-3.30467303048569e+01°)
1.16715810181850e+01	(-2.88680137622741e+00dB,-3.30580437169614e+01°)
1.16796739461315e+01	(-2.88954710803318e+00dB,-3.30693515749260e+01°)
1.16877724856127e+01	(-2.89229444551432e+00dB,-3.30806538672999e+01°)
1.16958766405198e+01	(-2.89504338799081e+00dB,-3.30919505826361e+01°)
1.17039864147462e+01	(-2.89779393478017e+00dB,-3.31032417094893e+01°)
1.17121018121884e+01	(-2.90054608519730e+00dB,-3.31145272364174e+01°)
1.17202228367454e+01	(-2.90329983855453e+00dB,-3.31258071519808e+01°)
1.17283494923191e+01	(-2.90605519416156e+00dB,-3.31370814447428e+01°)
1.17364817828138e+01	(-2.90881215132555e+00dB,-3.31483501032696e+01°)
1.17446197121368e+01	(-2.91157070935106e+00dB,-3.31596131161299e+01°)
1.17527632841980e+01	(-2.91433086754010e+00dB,-3.31708704718953e+01°)
1.17609125029099e+01	(-2.91709262519212e+00dB,-3.31821221591404e+01°)
1.17690673721880e+01	(-2.91985598160388e+00dB,-3.31933681664428e+01°)
1.17772278959501e+01	(-2.92262093606965e+00dB,-3.32046084823827e+01°)
1.17853940781171e+01	(-2.92538748788106e+00dB,-3.32158430955437e+01°)
1.17935659226125e+01	(-2.92815563632723e+00dB,-3.32270719945119e+01°)
1.18017434333623e+01	(-2.93092538069470e+00dB,-3.32382951678765e+01°)
1.18099266142956e+01	(-2.93369672026733e+00dB,-3.32495126042301e+01°)
1.18181154693440e+01	(-2.93646965432651e+00dB,-3.32607242921681e+01°)
1.18263100024417e+01	(-2.93924418215097e+00dB,-3.32719302202889e+01°)
1.18345102175260e+01	(-2.94202030301690e+00dB,-3.32831303771943e+01°)
1.18427161185366e+01	(-2.94479801619792e+00dB,-3.32943247514890e+01°)
1.18509277094161e+01	(-2.94757732096502e+00dB,-3.33055133317811e+01°)
1.18591449941098e+01	(-2.95035821658669e+00dB,-3.33166961066816e+01°)
1.18673679765656e+01	(-2.95314070232881e+00dB,-3.33278730648048e+01°)
1.18755966607344e+01	(-2.95592477745458e+00dB,-3.33390441947690e+01°)
1.18838310505696e+01	(-2.95871044122478e+00dB,-3.33502094851946e+01°)
1.18920711500275e+01	(-2.96149769289757e+00dB,-3.33613689247060e+01°)
1.19003169630671e+01	(-2.96428653172844e+00dB,-3.33725225019310e+01°)
1.19085684936500e+01	(-2.96707695697040e+00dB,-3.33836702055006e+01°)
1.19168257457408e+01	(-2.96986896787384e+00dB,-3.33948120240492e+01°)
1.19250887233066e+01	(-2.97266256368658e+00dB,-3.34059479462146e+01°)
1.19333574303175e+01	(-2.97545774365389e+00dB,-3.34170779606383e+01°)
1.19416318707462e+01	(-2.97825450701844e+00dB,-3.34282020559648e+01°)
1.19499120485682e+01	(-2.98105285302032e+00dB,-3.34393202208427e+01°)
1.19581979677616e+01	(-2.98385278089702e+00dB,-3.34504324439239e+01°)
1.19664896323075e+01	(-2.98665428988350e+00dB,-3.34615387138638e+01°)
1.19747870461896e+01	(-2.98945737921219e+00dB,-3.34726390193213e+01°)
1.19830902133945e+01	(-2.99226204811281e+00dB,-3.34837333489593e+01°)
1.19913991379115e+01	(-2.99506829581262e+00dB,-3.34948216914441e+01°)
1.19997138237325e+01	(-2.99787612153625e+00dB,-3.35059040354457e+01°)
1.20080342748524e+01	(-3.00068552450578e+00dB,-3.35169803696379e+01°)
1.20163604952689e+01	(-3.00349650394071e+00dB,-3.35280506826983e+01°)
1.20246924889821e+01	(-3.00630905905796e+00dB,-3.35391149633080e+01°)
1.20330302599954e+01	(-3.00912318907196e+00dB,-3.35501732001520e+01°)
1.20413738123145e+01	(-3.01193889319440e+00dB,-3.35612253819195e+01°)
1.20497231499482e+01	(-3.01475617063454e+00dB,-3.35722714973030e+01°)
1.20580782769080e+01	(-3.01757502059906e+00dB,-3.35833115349992e+01°)
1.20664391972080e+01	(-3.02039544229195e+00dB,-3.35943454837089e+01°)
1.20748059148653e+01	(-3.02321743491475e+00dB,-3.36053733321364e+01°)
1.20831784338998e+01	(-3.02604099766647e+00dB,-3.36163950689899e+01°)
1.20915567583340e+01	(-3.02886612974341e+00dB,-3.36274106829822e+01°)
1.20999408921933e+01	(-3.03169283033932e+00dB,-3.36384201628300e+01°)
1.21083308395059e+01	(-3.03452109864552e+00dB,-3.36494234972535e+01°)
1.21167266043028e+01	(-3.03735093385068e+00dB,-3.36604206749771e+01°)
1.21251281906177e+01	(-3.04018233514078e+00dB,-3.36714116847303e+01°)
1.21335356024873e+01	(-3.04301530169947e+00dB,-3.36823965152453e+01°)
1.21419488439508e+01	(-3.04584983270769e+00dB,-3.36933751552593e+01°)
1.21503679190505e+01	(-3.04868592734377e+00dB,-3.37043475935139e+01°)
1.21587928318313e+01	(-3.05152358478361e+00dB,-3.37153138187543e+01°)
1.21672235863411e+01	(-3.05436280420047e+00dB,-3.37262738197301e+01°)
1.21756601866302e+01	(-3.05720358476508e+00dB,-3.37372275851954e+01°)
